T2C9C 2440:191 SEGGER J-Link V6.30h Log File (0000ms, 6836ms total)
T2C9C 2440:191 DLL Compiled: Mar 16 2018 18:02:51 (0000ms, 6836ms total)
T2C9C 2440:191 Logging started @ 2018-11-30 09:36 (0001ms, 6837ms total)
T2C9C 2440:192 JLINK_SetWarnOutHandler(...) (0000ms, 6837ms total)
T2C9C 2440:192 JLINK_OpenEx(...)
Firmware: J-Link OB-STM32F072-CortexM compiled Mar  8 2020 11:15:54
Hardware: V1.00
S/N: 20171111
Feature(s): GDB, RDI, FlashBP, FlashDL, JFlash, RDDI
TELNET listener socket opened on port 19021WEBSRV 
Starting webserver (0182ms, 7019ms total)
T2C9C 2440:192 WEBSRV Webserver running on local port 19080 (0182ms, 7019ms total)
T2C9C 2440:192   returns O.K. (0182ms, 7019ms total)
T2C9C 2440:374 JLINK_GetEmuCaps()  returns 0xB8EA5A33 (0000ms, 7019ms total)
T2C9C 2440:375 JLINK_TIF_GetAvailable(...) (0000ms, 7019ms total)
T2C9C 2440:375 JLINK_SetErrorOutHandler(...) (0000ms, 7019ms total)
T2C9C 2440:375 JLINK_ExecCommand("ProjectFile = "E:\PLC\³ÌÐò\Ð´½øROM\WriteRom\Project\RVMDK£¨uv4£©\JLinkSettings.ini"", ...).   returns 0x00 (0004ms, 7023ms total)
T2C9C 2440:379 JLINK_ExecCommand("Device = STM32F103ZE", ...). Device "STM32F103ZE" selected.  returns 0x00 (0003ms, 7026ms total)
T2C9C 2440:382 JLINK_ExecCommand("DisableConnectionTimeout", ...).   returns 0x01 (0000ms, 7026ms total)
T2C9C 2440:382 JLINK_GetHardwareVersion()  returns 0x2710 (0000ms, 7026ms total)
T2C9C 2440:382 JLINK_GetDLLVersion()  returns 63008 (0000ms, 7026ms total)
T2C9C 2440:382 JLINK_GetFirmwareString(...) (0000ms, 7026ms total)
T2C9C 2440:382 JLINK_GetDLLVersion()  returns 63008 (0000ms, 7026ms total)
T2C9C 2440:382 JLINK_GetCompileDateTime() (0000ms, 7026ms total)
T2C9C 2440:382 JLINK_GetFirmwareString(...) (0000ms, 7026ms total)
T2C9C 2440:382 JLINK_GetHardwareVersion()  returns 0x2710 (0000ms, 7026ms total)
T2C9C 2440:382 JLINK_TIF_Select(JLINKARM_TIF_SWD)  returns 0x00 (0001ms, 7027ms total)
T2C9C 2440:383 JLINK_SetSpeed(5000) (0000ms, 7027ms total)
T2C9C 2440:383 JLINK_GetId() >0x10B TIF>Found SW-DP with ID 0x1BA01477 >0x0D TIF> >0x28 TIF> >0x0D TIF> >0x28 TIF> >0x0D TIF> >0x28 TIF> >0x0D TIF> >0x28 TIF> >0x0D TIF> >0x21 TIF> >0x0D TIF> >0x28 TIF> >0x0D TIF> >0x28 TIF> >0x0D TIF> >0x28 TIF> >0x0D TIF> >0x21 TIF> >0x0D TIF> >0x21 TIF> >0x0D TIF> >0x28 TIF> >0x0D TIF> >0x21 TIF> >0x0D TIF> >0x21 TIF> >0x0D TIF> >0x28 TIF> >0x0D TIF> >0x21 TIF> >0x0D TIF> >0x21 TIF> >0x0D TIF> >0x28 TIF> >0x0D TIF> >0x21 TIF> >0x0D TIF> >0x21 TIF> >0x0D TIF>
 >0x28 TIF> >0x0D TIF> >0x21 TIF> >0x0D TIF> >0x21 TIF> >0x0D TIF> >0x28 TIF> >0x0D TIF> >0x21 TIF> >0x0D TIF> >0x21 TIF> >0x0D TIF> >0x28 TIF> >0x0D TIF> >0x21 TIF> >0x0D TIF> >0x21 TIF> >0x10B TIF>Found SW-DP with ID 0x1BA01477 >0x0D TIF> >0x28 TIF> >0x0D TIF> >0x28 TIF> >0x0D TIF> >0x28 TIF> >0x0D TIF> >0x28 TIF> >0x0D TIF> >0x21 TIF> >0x0D TIF> >0x28 TIF>Scanning AP map to find all available APs >0x0D TIF> >0x28 TIF> >0x0D TIF> >0x21 TIF> >0x0D TIF> >0x21 TIF> >0x0D TIF> >0x28 TIF> >0x0D TIF>
 >0x21 TIF> >0x0D TIF> >0x21 TIF>AP[1]: Stopped AP scan as end of AP map has been reachedAP[0]: AHB-AP (IDR: 0x14770011)Iterating through AP map to find AHB-AP to use >0x42 TIF> >0x28 TIF> >0x0D TIF> >0x28 TIF> >0x0D TIF> >0x21 TIF> >0x0D TIF> >0x21 TIF> >0x42 TIF> >0x28 TIF> >0x0D TIF> >0x28 TIF> >0x0D TIF> >0x28 TIF> >0x0D TIF> >0x21 TIF> >0x0D TIF> >0x21 TIF>AP[0]: Core foundAP[0]: AHB-AP ROM base: 0xE00FF000 >0x0D TIF> >0x28 TIF> >0x0D TIF> >0x28 TIF> >0x0D TIF> >0x28 TIF> >0x0D TIF> >0x21 TIF>
 >0x0D TIF> >0x21 TIF>CPUID register: 0x411FC231. Implementer code: 0x41 (ARM)Found Cortex-M3 r1p1, Little endian. -- CPU_ReadMem(4 bytes @ 0xE000EDF0) -- CPU_WriteMem(4 bytes @ 0xE000EDF0) -- CPU_ReadMem(4 bytes @ 0xE0002000)FPUnit: 6 code (BP) slots and 2 literal slots -- CPU_ReadMem(4 bytes @ 0xE000EDFC) -- CPU_WriteMem(4 bytes @ 0xE000EDFC) -- CPU_ReadMem(4 bytes @ 0xE0001000) -- CPU_WriteMem(4 bytes @ 0xE0001000) -- CPU_ReadMem(4 bytes @ 0xE000ED88) -- CPU_WriteMem(4 bytes @ 0xE000ED88)
 -- CPU_ReadMem(4 bytes @ 0xE000ED88) -- CPU_WriteMem(4 bytes @ 0xE000ED88)CoreSight components:ROMTbl[0] @ E00FF000 -- CPU_ReadMem(16 bytes @ 0xE00FF000) -- CPU_ReadMem(16 bytes @ 0xE000EFF0) -- CPU_ReadMem(16 bytes @ 0xE000EFE0)ROMTbl[0][0]: E000E000, CID: B105E00D, PID: 001BB000 SCS -- CPU_ReadMem(16 bytes @ 0xE0001FF0) -- CPU_ReadMem(16 bytes @ 0xE0001FE0)ROMTbl[0][1]: E0001000, CID: B105E00D, PID: 001BB002 DWT -- CPU_ReadMem(16 bytes @ 0xE0002FF0) -- CPU_ReadMem(16 bytes @ 0xE0002FE0)
ROMTbl[0][2]: E0002000, CID: B105E00D, PID: 000BB003 FPB -- CPU_ReadMem(16 bytes @ 0xE0000FF0) -- CPU_ReadMem(16 bytes @ 0xE0000FE0)ROMTbl[0][3]: E0000000, CID: B105E00D, PID: 001BB001 ITM -- CPU_ReadMem(16 bytes @ 0xE00FF010) -- CPU_ReadMem(16 bytes @ 0xE0040FF0) -- CPU_ReadMem(16 bytes @ 0xE0040FE0)ROMTbl[0][4]: E0040000, CID: B105900D, PID: 001BB923 TPIU-Lite -- CPU_ReadMem(16 bytes @ 0xE0041FF0) -- CPU_ReadMem(16 bytes @ 0xE0041FE0)ROMTbl[0][5]: E0041000, CID: B105900D, PID: 101BB924 ETM-M3
 >0x0D TIF> >0x21 TIF>  returns 0x1BA01477 (0148ms, 7175ms total)
T2C9C 2440:531 JLINK_GetDLLVersion()  returns 63008 (0000ms, 7175ms total)
T2C9C 2440:531 JLINK_CORE_GetFound()  returns 0x30000FF (0000ms, 7175ms total)
T2C9C 2440:531 JLINK_GetDebugInfo(0x100 = JLINKARM_ROM_TABLE_ADDR_INDEX) -- Value=0xE00FF000  returns 0x00 (0000ms, 7175ms total)
T2C9C 2440:531 JLINK_GetDebugInfo(0x100 = JLINKARM_ROM_TABLE_ADDR_INDEX) -- Value=0xE00FF000  returns 0x00 (0000ms, 7175ms total)
T2C9C 2440:531 JLINK_GetDebugInfo(0x101 = JLINKARM_DEBUG_INFO_ETM_ADDR_INDEX) -- Value=0xE0041000  returns 0x00 (0000ms, 7175ms total)
T2C9C 2440:531 JLINK_ReadMemEx(0xE0041FD0, 0x0020 Bytes, ..., Flags = 0x02000004) -- CPU_ReadMem(32 bytes @ 0xE0041FD0) - Data: 04 00 00 00 00 00 00 00 00 00 00 00 00 00 00 00 ...  returns 0x20 (0001ms, 7176ms total)
T2C9C 2440:532 JLINK_GetDebugInfo(0x102 = JLINKARM_DEBUG_INFO_MTB_ADDR_INDEX) -- Value=0x00000000  returns 0x00 (0000ms, 7176ms total)
T2C9C 2440:532 JLINK_GetDebugInfo(0x103 = JLINKARM_DEBUG_INFO_TPIU_ADDR_INDEX) -- Value=0xE0040000  returns 0x00 (0000ms, 7176ms total)
T2C9C 2440:532 JLINK_GetDebugInfo(0x104 = JLINKARM_DEBUG_INFO_ITM_ADDR_INDEX) -- Value=0xE0000000  returns 0x00 (0000ms, 7176ms total)
T2C9C 2440:532 JLINK_GetDebugInfo(0x105 = JLINKARM_DEBUG_INFO_DWT_ADDR_INDEX) -- Value=0xE0001000  returns 0x00 (0000ms, 7176ms total)
T2C9C 2440:532 JLINK_GetDebugInfo(0x106 = JLINKARM_DEBUG_INFO_FPB_ADDR_INDEX) -- Value=0xE0002000  returns 0x00 (0000ms, 7176ms total)
T2C9C 2440:532 JLINK_GetDebugInfo(0x107 = JLINKARM_DEBUG_INFO_NVIC_ADDR_INDEX) -- Value=0xE000E000  returns 0x00 (0000ms, 7176ms total)
T2C9C 2440:532 JLINK_GetDebugInfo(0x10C = JLINKARM_DEBUG_INFO_DBG_ADDR_INDEX) -- Value=0xE000EDF0  returns 0x00 (0000ms, 7176ms total)
T2C9C 2440:532 JLINK_GetDebugInfo(0x01 = Unknown) -- Value=0x00000000  returns 0x00 (0000ms, 7176ms total)
T2C9C 2440:532 JLINK_ReadMemU32(0xE000ED00, 0x0001 Items, ...) -- CPU_ReadMem(4 bytes @ 0xE000ED00) - Data: 31 C2 1F 41  returns 0x01 (0001ms, 7177ms total)
T2C9C 2440:533 JLINK_GetDebugInfo(0x10F = JLINKARM_DEBUG_INFO_HAS_CORTEX_M_SECURITY_EXT_INDEX) -- Value=0x00000000  returns 0x00 (0000ms, 7177ms total)
T2C9C 2440:533 JLINK_SetResetType(JLINKARM_CM3_RESET_TYPE_NORMAL)  returns JLINKARM_CM3_RESET_TYPE_NORMAL (0000ms, 7177ms total)
T2C9C 2440:533 JLINK_Reset() -- CPU is running -- CPU_WriteMem(4 bytes @ 0xE000EDF0) -- CPU is running -- CPU_WriteMem(4 bytes @ 0xE000EDFC)Reset: Halt core after reset via DEMCR.VC_CORERESET. >0x35 TIF>Reset: Reset device via AIRCR.SYSRESETREQ. -- CPU is running -- CPU_WriteMem(4 bytes @ 0xE000ED0C) >0x0D TIF> >0x28 TIF> -- CPU_ReadMem(4 bytes @ 0xE000EDF0) -- CPU_ReadMem(4 bytes @ 0xE000EDF0) -- CPU is running -- CPU_WriteMem(4 bytes @ 0xE000EDF0) -- CPU is running -- CPU_WriteMem(4 bytes @ 0xE000EDFC)
 -- CPU_ReadMem(4 bytes @ 0xE000EDF0) -- CPU_WriteMem(4 bytes @ 0xE0002000) -- CPU_ReadMem(4 bytes @ 0xE000EDFC) -- CPU_ReadMem(4 bytes @ 0xE0001000) (0070ms, 7247ms total)
T2C9C 2440:603 JLINK_ReadReg(R15 (PC))  returns 0x08000144 (0000ms, 7247ms total)
T2C9C 2440:603 JLINK_ReadReg(XPSR)  returns 0x01000000 (0000ms, 7247ms total)
T2C9C 2440:603 JLINK_Halt()  returns 0x00 (0000ms, 7247ms total)
T2C9C 2440:603 JLINK_ReadMemU32(0xE000EDF0, 0x0001 Items, ...) -- CPU_ReadMem(4 bytes @ 0xE000EDF0) - Data: 03 00 03 00  returns 0x01 (0001ms, 7248ms total)
T2C9C 2440:604 JLINK_WriteU32(0xE000EDF0, 0xA05F0003) -- CPU_WriteMem(4 bytes @ 0xE000EDF0)  returns 0x00 (0000ms, 7248ms total)
T2C9C 2440:604 JLINK_WriteU32(0xE000EDFC, 0x01000000) -- CPU_WriteMem(4 bytes @ 0xE000EDFC)  returns 0x00 (0001ms, 7249ms total)
T2C9C 2440:605 JLINK_GetHWStatus(...)  returns 0x00 (0001ms, 7250ms total)
T2C9C 2440:606 JLINK_GetNumBPUnits(Type = 0xFFFFFF00)  returns 0x06 (0000ms, 7250ms total)
T2C9C 2440:606 JLINK_GetNumBPUnits(Type = 0xF0)  returns 0x2000 (0000ms, 7250ms total)
T2C9C 2440:606 JLINK_GetNumWPUnits()  returns 0x04 (0000ms, 7250ms total)
T2C9C 2440:606 JLINK_GetSpeed()  returns 0x7D0 (0000ms, 7250ms total)
T2C9C 2440:606 JLINK_ReadMemU32(0xE000E004, 0x0001 Items, ...) -- CPU_ReadMem(4 bytes @ 0xE000E004) - Data: 01 00 00 00  returns 0x01 (0001ms, 7251ms total)
T2C9C 2440:607 JLINK_ReadMemU32(0xE000E004, 0x0001 Items, ...) -- CPU_ReadMem(4 bytes @ 0xE000E004) - Data: 01 00 00 00  returns 0x01 (0001ms, 7252ms total)
T2C9C 2440:608 JLINK_WriteMemEx(0xE0001000, 0x001C Bytes, ..., Flags = 0x02000004) - Data: 01 00 00 00 00 00 00 00 00 00 00 00 00 00 00 00 ... -- CPU_WriteMem(28 bytes @ 0xE0001000)  returns 0x1C (0004ms, 7256ms total)
T2C9C 2440:612 JLINK_ReadReg(R15 (PC))  returns 0x08000144 (0000ms, 7256ms total)
T2C9C 2440:612 JLINK_ReadReg(XPSR)  returns 0x01000000 (0000ms, 7256ms total)
T2C9C 2440:613 JLINK_WriteU32(0xE0041FB0, 0xC5ACCE55) -- CPU_WriteMem(4 bytes @ 0xE0041FB0)  returns 0x00 (0001ms, 7257ms total)
T2C9C 2440:614 JLINK_ReadMemU32(0xE0041000, 0x0001 Items, ...) -- CPU_ReadMem(4 bytes @ 0xE0041000) - Data: 01 00 00 00  returns 0x01 (0000ms, 7257ms total)
T2C9C 2440:614 JLINK_WriteU32(0xE0041000, 0x00000000) -- CPU_WriteMem(4 bytes @ 0xE0041000)  returns 0x00 (0001ms, 7258ms total)
T2C9C 2440:626 JLINK_SWO_Control(JLINKARM_SWO_CMD_GET_SPEED_INFO, ...)  returns 0x00 (0001ms, 7259ms total)
T2C9C 2440:627 JLINK_SWO_Control(JLINKARM_SWO_CMD_STOP, ...)  returns 0x00 (0000ms, 7259ms total)
T2C9C 2440:627 JLINK_SWO_Control(JLINKARM_SWO_CMD_START, ...) -- UART -- 250000bps -- CPU_ReadMem(4 bytes @ 0xE0042004)  returns 0x00 (0010ms, 7269ms total)
T2C9C 2440:637 JLINK_WriteU32(0xE0040004, 0x00000001) -- CPU_WriteMem(4 bytes @ 0xE0040004)  returns 0x00 (0001ms, 7270ms total)
T2C9C 2440:638 JLINK_WriteU32(0xE0040010, 0x00000027)  returns 0x00 (0000ms, 7270ms total)
T2C9C 2440:638 JLINK_WriteU32(0xE00400F0, 0x00000002)  returns 0x00 (0000ms, 7270ms total)
T2C9C 2440:638 JLINK_WriteU32(0xE0040304, 0x00000000)  returns 0x00 (0000ms, 7270ms total)
T2C9C 2440:638 JLINK_WriteU32(0xE0000FB0, 0xC5ACCE55) -- CPU_WriteMem(4 bytes @ 0xE0000FB0)  returns 0x00 (0000ms, 7270ms total)
T2C9C 2440:638 JLINK_WriteU32(0xE0000E80, 0x0001000D)  returns 0x00 (0001ms, 7271ms total)
T2C9C 2440:639 JLINK_WriteU32(0xE0000E00, 0xFFFFFFFF)  returns 0x00 (0000ms, 7271ms total)
T2C9C 2440:639 JLINK_WriteU32(0xE0000E40, 0x00000008)  returns 0x00 (0000ms, 7271ms total)
T2C9C 2440:639 JLINK_WriteU32(0xE0001000, 0x0001061F)  returns 0x00 (0000ms, 7271ms total)
T2C9C 2440:802 JLINK_SetResetType(JLINKARM_CM3_RESET_TYPE_NORMAL)  returns JLINKARM_CM3_RESET_TYPE_NORMAL (0000ms, 7271ms total)
T2C9C 2440:802 JLINK_Reset() -- CPU_WriteMem(4 bytes @ 0xE0000E00) -- CPU_WriteMem(4 bytes @ 0xE0000E40) -- CPU_WriteMem(4 bytes @ 0xE0000E80) -- CPU_WriteMem(4 bytes @ 0xE0001000) -- CPU_WriteMem(4 bytes @ 0xE0040010) -- CPU_WriteMem(4 bytes @ 0xE00400F0) -- CPU_WriteMem(4 bytes @ 0xE0040304) -- CPU_WriteMem(4 bytes @ 0xE000EDF0) -- CPU_WriteMem(4 bytes @ 0xE000EDFC)Reset: Halt core after reset via DEMCR.VC_CORERESET. >0x35 TIF>Reset: Reset device via AIRCR.SYSRESETREQ.
 -- CPU_WriteMem(4 bytes @ 0xE000ED0C) >0x0D TIF> >0x28 TIF> -- CPU_ReadMem(4 bytes @ 0xE000EDF0) -- CPU_ReadMem(4 bytes @ 0xE000EDF0) -- CPU_WriteMem(4 bytes @ 0xE000EDF0) -- CPU_WriteMem(4 bytes @ 0xE000EDFC) -- CPU_ReadMem(4 bytes @ 0xE000EDF0) -- CPU_WriteMem(4 bytes @ 0xE0002000) -- CPU_ReadMem(4 bytes @ 0xE000EDFC) -- CPU_ReadMem(4 bytes @ 0xE0001000) -- CPU_ReadMem(4 bytes @ 0xE0042004) (0072ms, 7343ms total)
T2C9C 2440:875 JLINK_WriteU32(0xE000EDFC, 0x01000000) -- CPU_WriteMem(4 bytes @ 0xE000EDFC)  returns 0x00 (0000ms, 7343ms total)
T2C9C 2440:875 JLINK_ReadReg(R15 (PC))  returns 0x08000144 (0000ms, 7343ms total)
T2C9C 2440:875 JLINK_ReadReg(XPSR)  returns 0x01000000 (0000ms, 7343ms total)
T2C9C 2440:883 JLINK_ReadMemEx(0x08000144, 0x003C Bytes, ..., Flags = 0x02000000) -- CPU_ReadMem(64 bytes @ 0x08000140) -- Updating C cache (64 bytes @ 0x08000140) -- Read from C cache (60 bytes @ 0x08000144) - Data: 06 48 80 47 06 48 00 47 FE E7 FE E7 FE E7 FE E7 ...  returns 0x3C (0001ms, 7344ms total)
T2C9C 2441:190 JLINK_WriteU32(0xE0001008, 0x00000000)  returns 0x00 (0000ms, 7344ms total)
T2C9C 2441:191 JLINK_WriteU32(0xE000100C, 0x00000000)  returns 0x00 (0000ms, 7345ms total)
T2C9C 2441:191 JLINK_WriteU32(0xE0001010, 0x00000000)  returns 0x00 (0000ms, 7345ms total)
T2C9C 2441:191 JLINK_WriteU32(0xE0001014, 0x00000000)  returns 0x00 (0000ms, 7345ms total)
T2C9C 2441:191 JLINK_WriteU32(0xE0001018, 0x00000000)  returns 0x00 (0000ms, 7345ms total)
T2C9C 2443:649 JLINK_ReadReg(R0)  returns 0x20000078 (0000ms, 7345ms total)
T2C9C 2443:650 JLINK_ReadReg(R1)  returns 0x40002804 (0000ms, 7345ms total)
T2C9C 2443:650 JLINK_ReadReg(R2)  returns 0x5BFDDA80 (0000ms, 7345ms total)
T2C9C 2443:650 JLINK_ReadReg(R3)  returns 0x00000000 (0000ms, 7345ms total)
T2C9C 2443:650 JLINK_ReadReg(R4)  returns 0x0000000B (0000ms, 7345ms total)
T2C9C 2443:650 JLINK_ReadReg(R5)  returns 0x000000F0 (0000ms, 7345ms total)
T2C9C 2443:650 JLINK_ReadReg(R6)  returns 0x00000000 (0000ms, 7345ms total)
T2C9C 2443:650 JLINK_ReadReg(R7)  returns 0x00000000 (0000ms, 7345ms total)
T2C9C 2443:650 JLINK_ReadReg(R8)  returns 0x00000000 (0000ms, 7345ms total)
T2C9C 2443:650 JLINK_ReadReg(R9)  returns 0x20000160 (0000ms, 7345ms total)
T2C9C 2443:650 JLINK_ReadReg(R10)  returns 0x00000000 (0000ms, 7345ms total)
T2C9C 2443:650 JLINK_ReadReg(R11)  returns 0x00000000 (0000ms, 7345ms total)
T2C9C 2443:650 JLINK_ReadReg(R12)  returns 0x080036E4 (0000ms, 7345ms total)
T2C9C 2443:650 JLINK_ReadReg(R13 (SP))  returns 0x20000938 (0000ms, 7345ms total)
T2C9C 2443:650 JLINK_ReadReg(R14)  returns 0xFFFFFFFF (0000ms, 7345ms total)
T2C9C 2443:651 JLINK_ReadReg(R15 (PC))  returns 0x08000144 (0000ms, 7345ms total)
T2C9C 2443:651 JLINK_ReadReg(XPSR)  returns 0x01000000 (0000ms, 7345ms total)
T2C9C 2443:651 JLINK_ReadReg(MSP)  returns 0x20000938 (0000ms, 7345ms total)
T2C9C 2443:651 JLINK_ReadReg(PSP)  returns 0x20001000 (0000ms, 7345ms total)
T2C9C 2443:651 JLINK_ReadReg(CFBP)  returns 0x00000000 (0000ms, 7345ms total)
T2C9C 2443:668 JLINK_ReadMemEx(0x200000BA, 0x0020 Bytes, ..., Flags = 0x02000000) -- CPU_ReadMem(128 bytes @ 0x20000080) -- Updating C cache (128 bytes @ 0x20000080) -- Read from C cache (32 bytes @ 0x200000BA) - Data: 00 00 00 00 00 00 00 00 00 00 00 00 00 00 00 00 ...  returns 0x20 (0002ms, 7347ms total)
T2C9C 2443:676 JLINK_ReadMemEx(0x2000028B, 0x0020 Bytes, ..., Flags = 0x02000000) -- CPU_ReadMem(64 bytes @ 0x20000280) -- Updating C cache (64 bytes @ 0x20000280) -- Read from C cache (32 bytes @ 0x2000028B) - Data: 00 00 00 00 00 00 00 00 00 00 00 00 00 00 00 00 ...  returns 0x20 (0002ms, 7349ms total)
T2C7C 2443:787 JLINK_ReadMemEx(0x08000144, 0x0002 Bytes, ..., Flags = 0x02000000) -- Read from C cache (2 bytes @ 0x08000144) - Data: 06 48  returns 0x02 (0000ms, 7349ms total)
T2C7C 2443:787 JLINK_SetBPEx(Addr = 0x08002020, Type = 0xFFFFFFF2)  returns 0x00000001 (0000ms, 7349ms total)
T2C7C 2443:787 JLINK_ReadMemU32(0xE0001004, 0x0001 Items, ...) - Data: 00 00 00 00  returns 0x01 (0000ms, 7349ms total)
T2C7C 2443:787 JLINK_WriteU32(0xE0001004, 0x000003FF)  returns 0x00 (0000ms, 7349ms total)
T2C7C 2443:787 JLINK_WriteU32(0xE0001000, 0x0041061F)  returns 0x00 (0000ms, 7349ms total)
T2C7C 2443:787 JLINK_WriteU32(0xE0000E80, 0x0001000F)  returns 0x00 (0000ms, 7349ms total)
T2C7C 2443:787 JLINK_SWO_Control(JLINKARM_SWO_CMD_GET_NUM_BYTES, ...)  returns 0x00 (0000ms, 7349ms total)
T2C7C 2443:787 JLINK_Go() -- CPU_WriteMem(4 bytes @ 0xE0002000) -- CPU_WriteMem(4 bytes @ 0xE0001000) -- CPU_ReadMem(4 bytes @ 0xE0001000) -- CPU_WriteMem(4 bytes @ 0xE0000E80) -- CPU_WriteMem(4 bytes @ 0xE0001008) -- CPU_WriteMem(4 bytes @ 0xE000100C) -- CPU_WriteMem(4 bytes @ 0xE0001010) -- CPU_WriteMem(4 bytes @ 0xE0001014) -- CPU_WriteMem(4 bytes @ 0xE0001018) -- CPU_WriteMem(4 bytes @ 0xE0002008) -- CPU_WriteMem(4 bytes @ 0xE000200C) -- CPU_WriteMem(4 bytes @ 0xE0002010)
 -- CPU_WriteMem(4 bytes @ 0xE0002014) -- CPU_WriteMem(4 bytes @ 0xE0002018) -- CPU_WriteMem(4 bytes @ 0xE000201C) -- CPU_WriteMem(4 bytes @ 0xE0001004) (0008ms, 7357ms total)
T2C7C 2443:796 JLINK_WriteU32(0xE0001000, 0x0001061F) -- CPU is running -- CPU_WriteMem(4 bytes @ 0xE0001000)  returns 0x00 (0000ms, 7357ms total)
T2C7C 2443:897 JLINK_SWO_Read(..., Offset = 0x00, NumBytes = 0x400000) - Data:  NumBytesRead = 0x00 (0000ms, 7357ms total)
T2C7C 2443:899 JLINK_SWO_Control(JLINKARM_SWO_CMD_FLUSH, ...)  returns 0x00 (0000ms, 7357ms total)
T2C7C 2443:899 JLINK_IsHalted()  returns TRUE (0004ms, 7361ms total)
T2C7C 2443:904 JLINK_Halt()  returns 0x00 (0000ms, 7357ms total)
T2C7C 2443:904 JLINK_IsHalted()  returns TRUE (0000ms, 7357ms total)
T2C7C 2443:904 JLINK_IsHalted()  returns TRUE (0000ms, 7357ms total)
T2C7C 2443:904 JLINK_IsHalted()  returns TRUE (0000ms, 7357ms total)
T2C7C 2443:904 JLINK_ReadReg(R15 (PC))  returns 0x08002020 (0000ms, 7357ms total)
T2C7C 2443:904 JLINK_ReadReg(XPSR)  returns 0x61000000 (0000ms, 7357ms total)
T2C7C 2443:904 JLINK_SWO_Read(..., Offset = 0x00, NumBytes = 0x400000) - Data:  NumBytesRead = 0x00 (0000ms, 7357ms total)
T2C7C 2443:906 JLINK_SWO_Control(JLINKARM_SWO_CMD_FLUSH, ...)  returns 0x00 (0000ms, 7357ms total)
T2C7C 2443:906 JLINK_ClrBPEx(BPHandle = 0x00000001)  returns 0x00 (0000ms, 7357ms total)
T2C7C 2443:906 JLINK_ReadMemU32(0xE000ED30, 0x0001 Items, ...) -- CPU_ReadMem(4 bytes @ 0xE000ED30) - Data: 02 00 00 00  returns 0x01 (0000ms, 7357ms total)
T2C7C 2443:906 JLINK_ReadMemU32(0xE0001028, 0x0001 Items, ...) -- CPU_ReadMem(4 bytes @ 0xE0001028) - Data: 00 00 00 00  returns 0x01 (0001ms, 7358ms total)
T2C7C 2443:907 JLINK_ReadMemU32(0xE0001038, 0x0001 Items, ...) -- CPU_ReadMem(4 bytes @ 0xE0001038) - Data: 00 02 00 00  returns 0x01 (0001ms, 7359ms total)
T2C7C 2443:908 JLINK_ReadMemU32(0xE0001048, 0x0001 Items, ...) -- CPU_ReadMem(4 bytes @ 0xE0001048) - Data: 00 00 00 00  returns 0x01 (0000ms, 7359ms total)
T2C7C 2443:908 JLINK_ReadMemU32(0xE0001058, 0x0001 Items, ...) -- CPU_ReadMem(4 bytes @ 0xE0001058) - Data: 00 00 00 00  returns 0x01 (0001ms, 7360ms total)
T2C7C 2443:909 JLINK_ReadReg(R0)  returns 0x08002021 (0000ms, 7360ms total)
T2C7C 2443:909 JLINK_ReadReg(R1)  returns 0x20000938 (0000ms, 7360ms total)
T2C7C 2443:909 JLINK_ReadReg(R2)  returns 0x00000000 (0000ms, 7360ms total)
T2C7C 2443:909 JLINK_ReadReg(R3)  returns 0x08003189 (0000ms, 7360ms total)
T2C7C 2443:909 JLINK_ReadReg(R4)  returns 0x0800371C (0000ms, 7360ms total)
T2C7C 2443:909 JLINK_ReadReg(R5)  returns 0x0800371C (0000ms, 7360ms total)
T2C7C 2443:909 JLINK_ReadReg(R6)  returns 0x00000000 (0000ms, 7360ms total)
T2C7C 2443:909 JLINK_ReadReg(R7)  returns 0x00000000 (0000ms, 7360ms total)
T2C7C 2443:909 JLINK_ReadReg(R8)  returns 0x00000000 (0000ms, 7360ms total)
T2C7C 2443:909 JLINK_ReadReg(R9)  returns 0x20000160 (0000ms, 7360ms total)
T2C7C 2443:909 JLINK_ReadReg(R10)  returns 0x00000000 (0000ms, 7360ms total)
T2C7C 2443:909 JLINK_ReadReg(R11)  returns 0x00000000 (0000ms, 7360ms total)
T2C7C 2443:909 JLINK_ReadReg(R12)  returns 0x080036E4 (0000ms, 7360ms total)
T2C7C 2443:909 JLINK_ReadReg(R13 (SP))  returns 0x20000938 (0000ms, 7360ms total)
T2C7C 2443:909 JLINK_ReadReg(R14)  returns 0x08003149 (0000ms, 7360ms total)
T2C7C 2443:909 JLINK_ReadReg(R15 (PC))  returns 0x08002020 (0001ms, 7361ms total)
T2C7C 2443:910 JLINK_ReadReg(XPSR)  returns 0x61000000 (0000ms, 7361ms total)
T2C7C 2443:910 JLINK_ReadReg(MSP)  returns 0x20000938 (0000ms, 7361ms total)
T2C7C 2443:910 JLINK_ReadReg(PSP)  returns 0x20001000 (0000ms, 7361ms total)
T2C7C 2443:910 JLINK_ReadReg(CFBP)  returns 0x00000000 (0000ms, 7361ms total)
T2C9C 2443:910 JLINK_ReadMemEx(0x00000000, 0x0001 Bytes, ..., Flags = 0x02000000) -- CPU_ReadMem(4 bytes @ 0x00000004) -- CPU_ReadMem(64 bytes @ 0x08000000) -- Updating C cache (64 bytes @ 0x08000000) -- Read from C cache (1 bytes @ 0x08000000) - Data: 38  returns 0x01 (0002ms, 7363ms total)
T2C9C 2443:913 JLINK_ReadMemEx(0x200000BA, 0x0020 Bytes, ..., Flags = 0x02000000) -- CPU_ReadMem(128 bytes @ 0x20000080) -- Updating C cache (128 bytes @ 0x20000080) -- Read from C cache (32 bytes @ 0x200000BA) - Data: 00 00 00 00 00 00 00 00 00 00 00 00 00 00 00 00 ...  returns 0x20 (0002ms, 7365ms total)
T2C9C 2443:916 JLINK_ReadMemEx(0x2000028B, 0x0020 Bytes, ..., Flags = 0x02000000) -- CPU_ReadMem(64 bytes @ 0x20000280) -- Updating C cache (64 bytes @ 0x20000280) -- Read from C cache (32 bytes @ 0x2000028B) - Data: 00 00 00 00 00 00 00 00 00 00 00 00 00 00 00 00 ...  returns 0x20 (0001ms, 7366ms total)
T2C9C 2443:930 JLINK_ReadMemEx(0x08002020, 0x003C Bytes, ..., Flags = 0x02000000) -- CPU_ReadMem(128 bytes @ 0x08002000) -- Updating C cache (128 bytes @ 0x08002000) -- Read from C cache (60 bytes @ 0x08002020) - Data: 1C B5 3D 48 00 68 4F F4 7A 72 B0 FB F2 F1 B1 F1 ...  returns 0x3C (0002ms, 7368ms total)
T2C9C 2445:670 JLINK_ReadMemEx(0x080020B2, 0x0002 Bytes, ..., Flags = 0x02000000) -- CPU_ReadMem(64 bytes @ 0x08002080) -- Updating C cache (64 bytes @ 0x08002080) -- Read from C cache (2 bytes @ 0x080020B2) - Data: 1C 49  returns 0x02 (0001ms, 7369ms total)
T2C9C 2445:671 JLINK_ReadMemEx(0x080020B4, 0x003C Bytes, ..., Flags = 0x02000000) -- CPU_ReadMem(64 bytes @ 0x080020C0) -- Updating C cache (64 bytes @ 0x080020C0) -- Read from C cache (60 bytes @ 0x080020B4) - Data: 08 60 1D 48 00 68 01 28 1C D1 00 F0 50 FA 01 28 ...  returns 0x3C (0001ms, 7370ms total)
T2C7C 2448:884 JLINK_ReadMemEx(0x08002020, 0x0002 Bytes, ..., Flags = 0x02000000) -- Read from C cache (2 bytes @ 0x08002020) - Data: 1C B5  returns 0x02 (0000ms, 7370ms total)
T2C7C 2448:884 JLINK_SetBPEx(Addr = 0x080020D4, Type = 0xFFFFFFF2)  returns 0x00000002 (0000ms, 7370ms total)
T2C7C 2448:884 JLINK_SetBPEx(Addr = 0x080020CA, Type = 0xFFFFFFF2)  returns 0x00000003 (0000ms, 7370ms total)
T2C7C 2448:884 JLINK_ReadMemU32(0xE0001004, 0x0001 Items, ...) -- CPU_ReadMem(4 bytes @ 0xE0001004) - Data: 55 28 00 00  returns 0x01 (0000ms, 7370ms total)
T2C7C 2448:885 JLINK_WriteU32(0xE0001004, 0x000003FF)  returns 0x00 (0000ms, 7370ms total)
T2C7C 2448:885 JLINK_WriteU32(0xE0001000, 0x0041061F)  returns 0x00 (0000ms, 7370ms total)
T2C7C 2448:885 JLINK_WriteU32(0xE0000E80, 0x0001000F)  returns 0x00 (0000ms, 7370ms total)
T2C7C 2448:885 JLINK_SWO_Control(JLINKARM_SWO_CMD_GET_NUM_BYTES, ...)  returns 0x00 (0000ms, 7370ms total)
T2C7C 2448:885 JLINK_Go() -- CPU_WriteMem(4 bytes @ 0xE0002000) -- CPU_WriteMem(4 bytes @ 0xE0002000) -- CPU_WriteMem(4 bytes @ 0xE0001000) -- CPU_ReadMem(4 bytes @ 0xE0001000) -- CPU_WriteMem(4 bytes @ 0xE0000E80) -- CPU_WriteMem(4 bytes @ 0xE0002008) -- CPU_WriteMem(4 bytes @ 0xE000200C) -- CPU_WriteMem(4 bytes @ 0xE0001004) (0005ms, 7375ms total)
T2C7C 2448:890 JLINK_WriteU32(0xE0001000, 0x0001061F) -- CPU is running -- CPU_WriteMem(4 bytes @ 0xE0001000)  returns 0x00 (0001ms, 7376ms total)
T2C7C 2448:991 JLINK_SWO_Read(..., Offset = 0x00, NumBytes = 0x400000) - Data:  NumBytesRead = 0x00 (0000ms, 7376ms total)
T2C7C 2448:993 JLINK_SWO_Control(JLINKARM_SWO_CMD_FLUSH, ...)  returns 0x00 (0000ms, 7376ms total)
T2C7C 2448:993 JLINK_IsHalted()  returns FALSE (0000ms, 7376ms total)
T2C7C 2449:094 JLINK_SWO_Read(..., Offset = 0x00, NumBytes = 0x400000) - Data:  NumBytesRead = 0x00 (0000ms, 7376ms total)
T2C7C 2449:096 JLINK_SWO_Control(JLINKARM_SWO_CMD_FLUSH, ...)  returns 0x00 (0000ms, 7376ms total)
T2C7C 2449:096 JLINK_IsHalted()  returns FALSE (0000ms, 7376ms total)
T2C7C 2449:197 JLINK_SWO_Read(..., Offset = 0x00, NumBytes = 0x400000) - Data:  NumBytesRead = 0x00 (0000ms, 7376ms total)
T2C7C 2449:199 JLINK_SWO_Control(JLINKARM_SWO_CMD_FLUSH, ...)  returns 0x00 (0000ms, 7376ms total)
T2C7C 2449:199 JLINK_IsHalted()  returns FALSE (0000ms, 7376ms total)
T2C7C 2449:300 JLINK_SWO_Read(..., Offset = 0x00, NumBytes = 0x400000) - Data:  NumBytesRead = 0x00 (0000ms, 7376ms total)
T2C7C 2449:302 JLINK_SWO_Control(JLINKARM_SWO_CMD_FLUSH, ...)  returns 0x00 (0000ms, 7376ms total)
T2C7C 2449:302 JLINK_IsHalted()  returns FALSE (0000ms, 7376ms total)
